Circuit: * C:\Users\Kunal Keshan\OneDrive\Desktop\College\ECE\Semester 4\Courses\Analog Electronic Circuits\Lab\LT Spice\Experiment 9 - Two transistor current source with FET.asc

Direct Newton iteration for .op point succeeded.
Semiconductor Device Operating Points:
                        --- VDMOSFET Transistors ---
Name:          m2          m1
Model:       irf1503     irf1503
Id:          5.00e-03    5.00e-03
Vgs:         3.78e+00    3.78e+00
Vds:         3.78e+00    5.00e+00
Vth:         4.00e+00    4.00e+00
Gm:          9.49e-02    9.49e-02
Gds:         0.00e+00    0.00e+00
Cgs:         7.00e-09    7.00e-09
Cgd:         3.50e-09    1.64e-09
Cbody:       2.42e-09    2.16e-09



Date: Thu Apr 28 10:01:24 2022
Total elapsed time: 0.055 seconds.

tnom = 27
temp = 27
method = trap
totiter = 14
traniter = 0
tranpoints = 0
accept = 0
rejected = 0
matrix size = 13
fillins = 1
solver = Normal
Matrix Compiler1: 666 bytes object code size
Matrix Compiler2: 1.00 KB object code size
