Circuit: * C:\Users\Kunal Keshan\OneDrive\Desktop\College\ECE\Semester - III\Courses\Electronic Devices\Lab\LTSpice\10 BJT Cut-Off Characteristics.asc

Direct Newton iteration for .op point succeeded.
Semiconductor Device Operating Points:
                        --- Bipolar Transistors ---
Name:       q1
Model:    2n2222
Ib:      -1.00e-11
Ic:       1.00e-11
Vbe:      5.00e-08
Vbc:     -1.00e+01
Vce:      1.00e+01
BetaDC:  -1.00e+00
Gm:       4.25e-13
Rpi:      9.98e+11
Rx:       1.00e+01
Ro:       1.00e+16
Cbe:      2.50e-11
Cbc:      3.32e-12
Cjs:      0.00e+00
BetaAC:   4.24e-01
Cbx:      0.00e+00
Ft:       5.10e-03



Date: Mon Dec 27 18:07:20 2021
Total elapsed time: 0.036 seconds.

tnom = 27
temp = 27
method = trap
totiter = 6
traniter = 0
tranpoints = 0
accept = 0
rejected = 0
matrix size = 7
fillins = 0
solver = Normal
Matrix Compiler1: 410 bytes object code size
Matrix Compiler2: 535 bytes object code size
