Circuit: * C:\Users\Admin\OneDrive\Desktop\College\ECE\Semester - III\Courses\Electronic Devices\Lab\LTSpice\Draft3.asc

Direct Newton iteration for .op point succeeded.
Semiconductor Device Operating Points:
                        --- Bipolar Transistors ---
Name:       q1
Model:    bc547b
Ib:       1.96e-04
Ic:       4.56e-02
Vbe:      7.65e-01
Vbc:     -4.67e+00
Vce:      5.44e+00
BetaDC:   2.32e+02
Gm:       1.40e+00
Rpi:      1.33e+02
Rx:       1.00e+00
Ro:       1.45e+03
Cbe:      1.08e-09
Cbc:      1.09e-12
Cjs:      0.00e+00
BetaAC:   1.86e+02
Cbx:      6.71e-13
Ft:       2.06e+08



Date: Tue Nov 30 21:31:40 2021
Total elapsed time: 0.028 seconds.

tnom = 27
temp = 27
method = trap
totiter = 7
traniter = 0
tranpoints = 0
accept = 0
rejected = 0
matrix size = 7
fillins = 0
solver = Normal
Matrix Compiler1: 428 bytes object code size
Matrix Compiler2: 569 bytes object code size
