Circuit: * C:\Users\Kunal Keshan\OneDrive\Desktop\College\ECE\Semester - III\Courses\Electronic Devices\Lab\LTSpice\MOSFET Saturation Characteristics.asc

Direct Newton iteration for .op point succeeded.
Semiconductor Device Operating Points:
                        --- MOSFET Transistors ---
Name:          m1
Model:        nmos
Id:          8.39e-04
Vgs:         9.16e+00
Vds:         9.16e+00
Vbs:         0.00e+00
Vth:         0.00e+00
Vdsat:       9.16e+00
Gm:          1.83e-04
Gds:         0.00e+00
Gmb:         0.00e+00
Cbd:         0.00e+00
Cbs:         0.00e+00
Cgsov:       0.00e+00
Cgdov:       0.00e+00
Cgbov:       0.00e+00
Cgs:         0.00e+00
Cgd:         0.00e+00
Cgb:         0.00e+00



Date: Mon Dec 27 17:51:39 2021
Total elapsed time: 0.039 seconds.

tnom = 27
temp = 27
method = trap
totiter = 5
traniter = 0
tranpoints = 0
accept = 0
rejected = 0
matrix size = 4
fillins = 0
solver = Normal
Matrix Compiler1: 100 bytes object code size
Matrix Compiler2: 248 bytes object code size
