Circuit: * C:\Users\Kunal Keshan\OneDrive\Desktop\College\ECE\Semester - III\Courses\Electronic Devices\Lab\LTSpice\Series Voltage Regulator.asc

WARNING: Less than two connections to node NC_01.  This node is used by R§DRB.
Direct Newton iteration for .op point succeeded.
Semiconductor Device Operating Points:
                        --- Diodes ---
Name:      d1
Model:    1n750
Id:     -2.43e-03
Vd:     -4.57e+00
Req:     3.69e+01
CAP:     5.96e-11

                        --- Bipolar Transistors ---
Name:       q1
Model:    bc847b
Ib:      -1.24e-11
Ic:       1.24e-11
Vbe:     -1.12e-02
Vbc:     -2.43e+00
Vce:      2.42e+00
BetaDC:  -1.00e+00
Gm:       4.71e-13
Rpi:      9.93e+11
Rx:       1.00e+01
Ro:       6.97e+15
Cbe:      1.24e-11
Cbc:      1.07e-12
Cjs:      0.00e+00
BetaAC:   4.68e-01
Cbx:      6.57e-13
Ft:       1.00e-02



Date: Wed Dec 01 13:58:15 2021
Total elapsed time: 0.363 seconds.

tnom = 27
temp = 27
method = trap
totiter = 30
traniter = 0
tranpoints = 0
accept = 0
rejected = 0
matrix size = 9
fillins = 0
solver = Normal
Matrix Compiler1: 528 bytes object code size
Matrix Compiler2: 715 bytes object code size
